T8F0C 000:008.418   SEGGER J-Link V6.80 Log File
T8F0C 000:008.594   DLL Compiled: May 25 2020 17:04:25
T8F0C 000:008.605   Logging started @ 2025-04-29 07:18
T8F0C 000:008.617 JLINK_SetWarnOutHandler(...)
T8F0C 000:008.628 - 0.015ms
T8F0C 000:008.644 JLINK_OpenEx(...)
T8F0C 000:010.898   Firmware: J-Link V9 compiled Jun  2 2222 22:22:22
T8F0C 000:011.202   Decompressing FW timestamp took 235 us
T8F0C 000:019.954   Hardware: V9.40
T8F0C 000:020.063   S/N: 81480416
T8F0C 000:020.099   OEM: SEGGER
T8F0C 000:020.131   Feature(s): GDB, RDI, FlashBP, FlashDL, JFlash, RDDI
T8F0C 000:022.310   TELNET listener socket opened on port 19021
T8F0C 000:022.617   WEBSRV Starting webserver
T8F0C 000:023.094   WEBSRV Webserver running on local port 19080
T8F0C 000:023.135 - 14.499ms returns "O.K."
T8F0C 000:023.196 JLINK_GetEmuCaps()
T8F0C 000:023.217 - 0.029ms returns 0xB9FF7BBF
T8F0C 000:023.245 JLINK_TIF_GetAvailable(...)
T8F0C 000:023.692 - 0.473ms
T8F0C 000:023.737 JLINK_SetErrorOutHandler(...)
T8F0C 000:023.749 - 0.018ms
T8F0C 000:023.805 JLINK_ExecCommand("ProjectFile = "C:\Users\jianchuan.wang\Desktop\CIMC\CIMC\01 CIMC_GD32_Template\project\JLinkSettings.ini"", ...). 
T8F0C 000:041.625   Ref file found at: D:\software\Keil\Keil_5\ARM\Segger\JLinkDevices.ref
T8F0C 000:042.189   REF file references invalid XML file: C:\Program Files\SEGGER\JLink_V812a\JLinkDevices.xml
T8F0C 000:056.893   Device "CORTEX-M4" selected.
T8F0C 000:059.821 - 36.083ms returns 0x00
T8F0C 000:117.137 JLINK_ExecCommand("Device = GD32F470VE", ...). 
T8F0C 000:159.032   Device "CORTEX-M4" selected.
T8F0C 000:160.263 - 43.044ms returns 0x00
T8F0C 000:160.309 JLINK_ExecCommand("DisableConnectionTimeout", ...). 
T8F0C 000:160.335 - 0.012ms returns 0x01
T8F0C 000:160.354 JLINK_GetHardwareVersion()
T8F0C 000:160.367 - 0.019ms returns 0x16F30
T8F0C 000:160.514 JLINK_GetDLLVersion()  returns 68000
T8F0C 000:160.550 JLINK_GetFirmwareString(...)
T8F0C 000:160.565 - 0.020ms
T8F0C 000:193.911 JLINK_GetDLLVersion()  returns 68000
T8F0C 000:193.952 JLINK_GetCompileDateTime()
T8F0C 000:193.961 - 0.013ms
T8F0C 000:202.923 JLINK_GetFirmwareString(...)
T8F0C 000:202.945 - 0.024ms
T8F0C 000:209.526 JLINK_GetHardwareVersion()
T8F0C 000:209.552 - 0.029ms returns 0x16F30
T8F0C 000:343.614 JLINK_TIF_Select(JLINKARM_TIF_SWD)
T8F0C 000:345.230 - 1.663ms returns 0x00
T8F0C 000:345.291 JLINK_SetSpeed(100)
T8F0C 000:345.502 - 0.231ms
T8F0C 000:345.535 JLINK_GetId()
T8F0C 000:354.412   Found SW-DP with ID 0x2BA01477
T8F0C 000:364.518   Old FW that does not support reading DPIDR via DAP jobs
T8F0C 000:375.434   Unknown DP version. Assuming DPv0
T8F0C 000:380.369   Scanning AP map to find all available APs
T8F0C 000:392.895   AP[1]: Stopped AP scan as end of AP map has been reached
T8F0C 000:395.617   AP[0]: AHB-AP (IDR: 0x24770011)
T8F0C 000:410.502   Iterating through AP map to find AHB-AP to use
T8F0C 000:462.601   AP[0]: Core found
T8F0C 000:485.947   AP[0]: AHB-AP ROM base: 0xE00FF000
T8F0C 000:503.783   CPUID register: 0x410FC241. Implementer code: 0x41 (ARM)
T8F0C 000:517.982   Found Cortex-M4 r0p1, Little endian.
T8F0C 000:620.252   -- Max. mem block: 0x00010C80
T8F0C 000:620.440   CPU_ReadMem(4 bytes @ 0xE000EDF0)
T8F0C 000:624.477   CPU_WriteMem(4 bytes @ 0xE000EDF0)
T8F0C 000:627.958   CPU_ReadMem(4 bytes @ 0xE0002000)
T8F0C 000:646.349   FPUnit: 6 code (BP) slots and 2 literal slots
T8F0C 000:646.410   CPU_ReadMem(4 bytes @ 0xE000EDFC)
T8F0C 000:649.776   CPU_WriteMem(4 bytes @ 0xE000EDFC)
T8F0C 000:653.065   CPU_ReadMem(4 bytes @ 0xE0001000)
T8F0C 000:656.403   CPU_WriteMem(4 bytes @ 0xE0001000)
T8F0C 000:659.875   CPU_ReadMem(4 bytes @ 0xE000ED88)
T8F0C 000:663.270   CPU_WriteMem(4 bytes @ 0xE000ED88)
T8F0C 000:666.624   CPU_ReadMem(4 bytes @ 0xE000ED88)
T8F0C 000:669.960   CPU_WriteMem(4 bytes @ 0xE000ED88)
T8F0C 000:687.660   CoreSight components:
T8F0C 000:695.259   ROMTbl[0] @ E00FF000
T8F0C 000:695.295   CPU_ReadMem(64 bytes @ 0xE00FF000)
T8F0C 000:705.744   CPU_ReadMem(32 bytes @ 0xE000EFE0)
T8F0C 000:725.595   ROMTbl[0][0]: E000E000, CID: B105E00D, PID: 000BB00C SCS-M7
T8F0C 000:725.715   CPU_ReadMem(32 bytes @ 0xE0001FE0)
T8F0C 000:737.149   ROMTbl[0][1]: E0001000, CID: B105E00D, PID: 003BB002 DWT
T8F0C 000:737.242   CPU_ReadMem(32 bytes @ 0xE0002FE0)
T8F0C 000:749.196   ROMTbl[0][2]: E0002000, CID: B105E00D, PID: 002BB003 FPB
T8F0C 000:749.228   CPU_ReadMem(32 bytes @ 0xE0000FE0)
T8F0C 000:762.464   ROMTbl[0][3]: E0000000, CID: B105E00D, PID: 003BB001 ITM
T8F0C 000:762.504   CPU_ReadMem(32 bytes @ 0xE0040FE0)
T8F0C 000:771.027   ROMTbl[0][4]: E0040000, CID: B105900D, PID: 000BB9A1 TPIU
T8F0C 000:771.094   CPU_ReadMem(32 bytes @ 0xE0041FE0)
T8F0C 000:780.321   ROMTbl[0][5]: E0041000, CID: 00000000, PID: 00000000 ???
T8F0C 000:781.329 - 435.799ms   returns 0x2BA01477
T8F0C 000:781.348 JLINK_GetDLLVersion()  returns 68000
T8F0C 000:781.353 JLINK_CORE_GetFound()
T8F0C 000:781.358 - 0.006ms returns 0xE0000FF
T8F0C 000:781.486 JLINK_GetDebugInfo(0x100 = JLINKARM_ROM_TABLE_ADDR_INDEX)
T8F0C 000:781.491   Value=0xE00FF000
T8F0C 000:781.497 - 0.013ms returns 0x00
T8F0C 000:783.241 JLINK_GetDebugInfo(0x100 = JLINKARM_ROM_TABLE_ADDR_INDEX)
T8F0C 000:783.254   Value=0xE00FF000
T8F0C 000:783.260 - 0.021ms returns 0x00
T8F0C 000:783.265 JLINK_GetDebugInfo(0x101 = JLINKARM_DEBUG_INFO_ETM_ADDR_INDEX)
T8F0C 000:783.270   Value=0x00000000
T8F0C 000:783.276 - 0.012ms returns 0x00
T8F0C 000:783.282   JLINK_ReadMemEx(0xE0041FF0, 0x0010 Bytes, ..., Flags = 0x02000004)
T8F0C 000:783.310   CPU_ReadMem(16 bytes @ 0xE0041FF0)
T8F0C 000:787.901   Data:  00 00 00 00 00 00 00 00 00 00 00 00 00 00 00 00
T8F0C 000:787.928 - 4.650ms returns 0x10
T8F0C 000:787.939 JLINK_GetDebugInfo(0x102 = JLINKARM_DEBUG_INFO_MTB_ADDR_INDEX)
T8F0C 000:787.946   Value=0x00000000
T8F0C 000:787.954 - 0.017ms returns 0x00
T8F0C 000:787.960 JLINK_GetDebugInfo(0x103 = JLINKARM_DEBUG_INFO_TPIU_ADDR_INDEX)
T8F0C 000:787.966   Value=0xE0040000
T8F0C 000:787.974 - 0.016ms returns 0x00
T8F0C 000:787.980 JLINK_GetDebugInfo(0x104 = JLINKARM_DEBUG_INFO_ITM_ADDR_INDEX)
T8F0C 000:787.986   Value=0xE0000000
T8F0C 000:787.994 - 0.016ms returns 0x00
T8F0C 000:788.000 JLINK_GetDebugInfo(0x105 = JLINKARM_DEBUG_INFO_DWT_ADDR_INDEX)
T8F0C 000:788.006   Value=0xE0001000
T8F0C 000:788.014 - 0.016ms returns 0x00
T8F0C 000:788.020 JLINK_GetDebugInfo(0x106 = JLINKARM_DEBUG_INFO_FPB_ADDR_INDEX)
T8F0C 000:788.025   Value=0xE0002000
T8F0C 000:788.033 - 0.016ms returns 0x00
T8F0C 000:788.040 JLINK_GetDebugInfo(0x107 = JLINKARM_DEBUG_INFO_NVIC_ADDR_INDEX)
T8F0C 000:788.045   Value=0xE000E000
T8F0C 000:788.053 - 0.016ms returns 0x00
T8F0C 000:788.059 JLINK_GetDebugInfo(0x10C = JLINKARM_DEBUG_INFO_DBG_ADDR_INDEX)
T8F0C 000:788.065   Value=0xE000EDF0
T8F0C 000:788.073 - 0.016ms returns 0x00
T8F0C 000:788.079 JLINK_GetDebugInfo(0x01 = Unknown)
T8F0C 000:788.088   Value=0x00000001
T8F0C 000:788.096 - 0.019ms returns 0x00
T8F0C 000:788.103 JLINK_ReadMemU32(0xE000ED00, 0x0001 Items, ...)
T8F0C 000:788.119   CPU_ReadMem(4 bytes @ 0xE000ED00)
T8F0C 000:791.387   Data:  41 C2 0F 41
T8F0C 000:791.412   Debug reg: CPUID
T8F0C 000:791.420 - 3.320ms returns 1
T8F0C 000:791.432 JLINK_GetDebugInfo(0x10F = JLINKARM_DEBUG_INFO_HAS_CORTEX_M_SECURITY_EXT_INDEX)
T8F0C 000:791.440   Value=0x00000000
T8F0C 000:791.448 - 0.019ms returns 0x00
T8F0C 000:791.458 JLINK_SetResetType(JLINKARM_CM3_RESET_TYPE_NORMAL)
T8F0C 000:791.464 - 0.008ms returns JLINKARM_CM3_RESET_TYPE_NORMAL
T8F0C 000:791.471 JLINK_Reset()
T8F0C 000:791.506   CPU is running
T8F0C 000:791.516   CPU_WriteMem(4 bytes @ 0xE000EDF0)
T8F0C 000:794.815   CPU is running
T8F0C 000:794.846   CPU_WriteMem(4 bytes @ 0xE000EDFC)
T8F0C 000:800.238   Reset: Halt core after reset via DEMCR.VC_CORERESET.
T8F0C 000:802.751   Reset: Reset device via AIRCR.SYSRESETREQ.
T8F0C 000:802.770   CPU is running
T8F0C 000:802.779   CPU_WriteMem(4 bytes @ 0xE000ED0C)
T8F0C 000:858.532   CPU_ReadMem(4 bytes @ 0xE000EDF0)
T8F0C 000:861.849   CPU_ReadMem(4 bytes @ 0xE000EDF0)
T8F0C 000:865.201   CPU is running
T8F0C 000:865.249   CPU_WriteMem(4 bytes @ 0xE000EDF0)
T8F0C 000:868.452   CPU is running
T8F0C 000:868.467   CPU_WriteMem(4 bytes @ 0xE000EDFC)
T8F0C 000:877.371   CPU_ReadMem(4 bytes @ 0xE000EDF0)
T8F0C 000:934.241   CPU_WriteMem(4 bytes @ 0xE0002000)
T8F0C 000:937.621   CPU_ReadMem(4 bytes @ 0xE000EDFC)
T8F0C 000:941.037   CPU_ReadMem(4 bytes @ 0xE0001000)
T8F0C 000:944.385 - 152.944ms
T8F0C 000:944.440 JLINK_Halt()
T8F0C 000:944.452 - 0.017ms returns 0x00
T8F0C 000:944.613 JLINK_ReadMemU32(0xE000EDF0, 0x0001 Items, ...)
T8F0C 000:944.641   CPU_ReadMem(4 bytes @ 0xE000EDF0)
T8F0C 000:948.014   Data:  03 00 03 00
T8F0C 000:948.055   Debug reg: DHCSR
T8F0C 000:948.073 - 3.466ms returns 1
T8F0C 000:948.093 JLINK_WriteU32(0xE000EDF0, 0xA05F0003)
T8F0C 000:948.106   Debug reg: DHCSR
T8F0C 000:948.170   CPU_WriteMem(4 bytes @ 0xE000EDF0)
T8F0C 000:951.474 - 3.390ms returns 0
T8F0C 000:951.493 JLINK_WriteU32(0xE000EDFC, 0x01000000)
T8F0C 000:951.505   Debug reg: DEMCR
T8F0C 000:951.528   CPU_WriteMem(4 bytes @ 0xE000EDFC)
T8F0C 000:954.772 - 3.305ms returns 0
T8F0C 000:989.314 JLINK_GetHWStatus(...)
T8F0C 000:989.745 - 0.472ms returns 0x00
T8F0C 001:028.152 JLINK_GetNumBPUnits(Type = 0xFFFFFF00)
T8F0C 001:028.183 - 0.034ms returns 0x06
T8F0C 001:028.191 JLINK_GetNumBPUnits(Type = 0xF0)
T8F0C 001:028.196 - 0.008ms returns 0x2000
T8F0C 001:028.203 JLINK_GetNumWPUnits()
T8F0C 001:028.210 - 0.009ms returns 0x04
T8F0C 001:071.770 JLINK_GetSpeed()
T8F0C 001:071.805 - 0.038ms returns 0x64
T8F0C 001:087.622 JLINK_ReadMemU32(0xE000E004, 0x0001 Items, ...)
T8F0C 001:087.674   CPU_ReadMem(4 bytes @ 0xE000E004)
T8F0C 001:091.007   Data:  02 00 00 00
T8F0C 001:091.100 - 3.481ms returns 1
T8F0C 001:091.112 JLINK_ReadMemU32(0xE000E004, 0x0001 Items, ...)
T8F0C 001:091.130   CPU_ReadMem(4 bytes @ 0xE000E004)
T8F0C 001:094.437   Data:  02 00 00 00
T8F0C 001:094.455 - 3.345ms returns 1
T8F0C 001:094.468 JLINK_WriteMemEx(0xE0001000, 0x001C Bytes, ..., Flags = 0x02000004)
T8F0C 001:094.474   Data:  01 00 00 00 00 00 00 00 00 00 00 00 00 00 00 00 ...
T8F0C 001:094.812   CPU_WriteMem(28 bytes @ 0xE0001000)
T8F0C 001:100.923 - 6.483ms returns 0x1C
T8F0C 001:101.083 JLINK_Halt()
T8F0C 001:101.114 - 0.036ms returns 0x00
T8F0C 001:101.126 JLINK_IsHalted()
T8F0C 001:101.136 - 0.014ms returns TRUE
T8F0C 001:110.451 JLINK_WriteMem(0x20000000, 0x034C Bytes, ...)
T8F0C 001:110.468   Data:  00 BE 0A E0 0D 78 2D 06 68 40 08 24 40 00 00 D3 ...
T8F0C 001:110.722   CPU_WriteMem(844 bytes @ 0x20000000)
T8F0C 001:212.957 - 102.545ms returns 0x34C
T8F0C 001:213.312 JLINK_WriteReg(R0, 0x08000000)
T8F0C 001:213.394 - 0.092ms returns 0x00
T8F0C 001:213.416 JLINK_WriteReg(R1, 0x00B71B00)
T8F0C 001:213.434 - 0.027ms returns 0x00
T8F0C 001:213.454 JLINK_WriteReg(R2, 0x00000001)
T8F0C 001:213.471 - 0.025ms returns 0x00
T8F0C 001:213.491 JLINK_WriteReg(R3, 0x00000000)
T8F0C 001:213.508 - 0.025ms returns 0x00
T8F0C 001:213.527 JLINK_WriteReg(R4, 0x00000000)
T8F0C 001:213.544 - 0.025ms returns 0x00
T8F0C 001:213.566 JLINK_WriteReg(R5, 0x00000000)
T8F0C 001:213.584 - 0.025ms returns 0x00
T8F0C 001:213.603 JLINK_WriteReg(R6, 0x00000000)
T8F0C 001:213.621 - 0.025ms returns 0x00
T8F0C 001:213.641 JLINK_WriteReg(R7, 0x00000000)
T8F0C 001:213.659 - 0.027ms returns 0x00
T8F0C 001:213.679 JLINK_WriteReg(R8, 0x00000000)
T8F0C 001:213.698 - 0.028ms returns 0x00
T8F0C 001:213.719 JLINK_WriteReg(R9, 0x20000348)
T8F0C 001:213.738 - 0.028ms returns 0x00
T8F0C 001:213.758 JLINK_WriteReg(R10, 0x00000000)
T8F0C 001:213.778 - 0.030ms returns 0x00
T8F0C 001:213.799 JLINK_WriteReg(R11, 0x00000000)
T8F0C 001:213.819 - 0.028ms returns 0x00
T8F0C 001:213.839 JLINK_WriteReg(R12, 0x00000000)
T8F0C 001:213.856 - 0.026ms returns 0x00
T8F0C 001:213.876 JLINK_WriteReg(R13 (SP), 0x20001000)
T8F0C 001:213.895 - 0.028ms returns 0x00
T8F0C 001:213.915 JLINK_WriteReg(R14, 0x20000001)
T8F0C 001:213.933 - 0.026ms returns 0x00
T8F0C 001:213.952 JLINK_WriteReg(R15 (PC), 0x200000B0)
T8F0C 001:214.005 - 0.060ms returns 0x00
T8F0C 001:214.024 JLINK_WriteReg(XPSR, 0x01000000)
T8F0C 001:214.056 - 0.042ms returns 0x00
T8F0C 001:214.079 JLINK_WriteReg(MSP, 0x20001000)
T8F0C 001:214.098 - 0.027ms returns 0x00
T8F0C 001:214.119 JLINK_WriteReg(PSP, 0x20001000)
T8F0C 001:214.140 - 0.029ms returns 0x00
T8F0C 001:214.160 JLINK_WriteReg(CFBP, 0x00000000)
T8F0C 001:214.178 - 0.026ms returns 0x00
T8F0C 001:214.201   JLINK_SetBPEx(Addr = 0x20000000, Type = 0xFFFFFFF2)
T8F0C 001:214.245   CPU_ReadMem(4 bytes @ 0x20000000)
T8F0C 001:217.766   CPU_WriteMem(4 bytes @ 0x20000000)
T8F0C 001:221.253   CPU_ReadMem(4 bytes @ 0x20000000)
T8F0C 001:224.704   CPU_WriteMem(4 bytes @ 0x20000000)
T8F0C 001:228.144   CPU_ReadMem(2 bytes @ 0x20000000)
T8F0C 001:231.708 - 17.559ms returns 0x00000001
T8F0C 001:231.784 JLINK_Go()
T8F0C 001:231.857   CPU_WriteMem(2 bytes @ 0x20000000)
T8F0C 001:235.409   CPU_ReadMem(4 bytes @ 0xE0001000)
T8F0C 001:238.929   CPU_WriteMem(4 bytes @ 0xE0002008)
T8F0C 001:239.021   CPU_WriteMem(4 bytes @ 0xE000200C)
T8F0C 001:239.056   CPU_WriteMem(4 bytes @ 0xE0002010)
T8F0C 001:239.088   CPU_WriteMem(4 bytes @ 0xE0002014)
T8F0C 001:239.118   CPU_WriteMem(4 bytes @ 0xE0002018)
T8F0C 001:239.148   CPU_WriteMem(4 bytes @ 0xE000201C)
T8F0C 001:257.775   CPU_WriteMem(4 bytes @ 0xE0001004)
T8F0C 001:309.853 - 78.133ms
T8F0C 001:309.952 JLINK_IsHalted()
T8F0C 001:363.743   CPU_ReadMem(2 bytes @ 0x20000000)
T8F0C 001:367.181 - 57.258ms returns TRUE
T8F0C 001:367.232 JLINK_ReadReg(R15 (PC))
T8F0C 001:367.257 - 0.033ms returns 0x20000000
T8F0C 001:367.277 JLINK_ClrBPEx(BPHandle = 0x00000001)
T8F0C 001:367.294 - 0.024ms returns 0x00
T8F0C 001:367.314 JLINK_ReadReg(R0)
T8F0C 001:367.330 - 0.023ms returns 0x00000000
T8F0C 001:368.013 JLINK_WriteReg(R0, 0x08000000)
T8F0C 001:368.043 - 0.039ms returns 0x00
T8F0C 001:368.062 JLINK_WriteReg(R1, 0x00004000)
T8F0C 001:368.078 - 0.024ms returns 0x00
T8F0C 001:368.095 JLINK_WriteReg(R2, 0x000000FF)
T8F0C 001:368.110 - 0.023ms returns 0x00
T8F0C 001:368.128 JLINK_WriteReg(R3, 0x00000000)
T8F0C 001:368.143 - 0.023ms returns 0x00
T8F0C 001:368.160 JLINK_WriteReg(R4, 0x00000000)
T8F0C 001:368.175 - 0.023ms returns 0x00
T8F0C 001:368.192 JLINK_WriteReg(R5, 0x00000000)
T8F0C 001:368.208 - 0.023ms returns 0x00
T8F0C 001:368.225 JLINK_WriteReg(R6, 0x00000000)
T8F0C 001:368.240 - 0.022ms returns 0x00
T8F0C 001:368.257 JLINK_WriteReg(R7, 0x00000000)
T8F0C 001:368.272 - 0.023ms returns 0x00
T8F0C 001:368.289 JLINK_WriteReg(R8, 0x00000000)
T8F0C 001:368.305 - 0.023ms returns 0x00
T8F0C 001:368.321 JLINK_WriteReg(R9, 0x20000348)
T8F0C 001:368.337 - 0.023ms returns 0x00
T8F0C 001:368.355 JLINK_WriteReg(R10, 0x00000000)
T8F0C 001:368.371 - 0.024ms returns 0x00
T8F0C 001:368.390 JLINK_WriteReg(R11, 0x00000000)
T8F0C 001:368.406 - 0.024ms returns 0x00
T8F0C 001:368.424 JLINK_WriteReg(R12, 0x00000000)
T8F0C 001:368.440 - 0.024ms returns 0x00
T8F0C 001:368.458 JLINK_WriteReg(R13 (SP), 0x20001000)
T8F0C 001:368.475 - 0.025ms returns 0x00
T8F0C 001:368.493 JLINK_WriteReg(R14, 0x20000001)
T8F0C 001:368.509 - 0.024ms returns 0x00
T8F0C 001:368.527 JLINK_WriteReg(R15 (PC), 0x20000020)
T8F0C 001:368.544 - 0.024ms returns 0x00
T8F0C 001:368.562 JLINK_WriteReg(XPSR, 0x01000000)
T8F0C 001:368.578 - 0.024ms returns 0x00
T8F0C 001:368.596 JLINK_WriteReg(MSP, 0x20001000)
T8F0C 001:368.612 - 0.033ms returns 0x00
T8F0C 001:368.639 JLINK_WriteReg(PSP, 0x20001000)
T8F0C 001:368.656 - 0.024ms returns 0x00
T8F0C 001:368.674 JLINK_WriteReg(CFBP, 0x00000000)
T8F0C 001:368.690 - 0.024ms returns 0x00
T8F0C 001:368.710   JLINK_SetBPEx(Addr = 0x20000000, Type = 0xFFFFFFF2)
T8F0C 001:368.735 - 0.034ms returns 0x00000002
T8F0C 001:368.753 JLINK_Go()
T8F0C 001:368.782   CPU_ReadMem(4 bytes @ 0xE0001000)
T8F0C 001:419.259 - 50.570ms
T8F0C 001:419.366 JLINK_IsHalted()
T8F0C 001:473.089   CPU_ReadMem(2 bytes @ 0x20000000)
T8F0C 001:476.392 - 57.051ms returns TRUE
T8F0C 001:476.432 JLINK_ReadReg(R15 (PC))
T8F0C 001:476.449 - 0.022ms returns 0x20000000
T8F0C 001:476.462 JLINK_ClrBPEx(BPHandle = 0x00000002)
T8F0C 001:476.544 - 0.094ms returns 0x00
T8F0C 001:476.565 JLINK_ReadReg(R0)
T8F0C 001:476.575 - 0.014ms returns 0x00000001
T8F0C 001:476.737 JLINK_WriteReg(R0, 0x08000000)
T8F0C 001:476.757 - 0.026ms returns 0x00
T8F0C 001:476.768 JLINK_WriteReg(R1, 0x00004000)
T8F0C 001:476.777 - 0.013ms returns 0x00
T8F0C 001:476.787 JLINK_WriteReg(R2, 0x000000FF)
T8F0C 001:476.796 - 0.012ms returns 0x00
T8F0C 001:476.805 JLINK_WriteReg(R3, 0x00000000)
T8F0C 001:476.814 - 0.012ms returns 0x00
T8F0C 001:476.823 JLINK_WriteReg(R4, 0x00000000)
T8F0C 001:476.832 - 0.012ms returns 0x00
T8F0C 001:476.841 JLINK_WriteReg(R5, 0x00000000)
T8F0C 001:476.850 - 0.013ms returns 0x00
T8F0C 001:476.859 JLINK_WriteReg(R6, 0x00000000)
T8F0C 001:476.868 - 0.012ms returns 0x00
T8F0C 001:476.877 JLINK_WriteReg(R7, 0x00000000)
T8F0C 001:476.886 - 0.013ms returns 0x00
T8F0C 001:476.895 JLINK_WriteReg(R8, 0x00000000)
T8F0C 001:476.904 - 0.013ms returns 0x00
T8F0C 001:476.914 JLINK_WriteReg(R9, 0x20000348)
T8F0C 001:476.922 - 0.012ms returns 0x00
T8F0C 001:476.931 JLINK_WriteReg(R10, 0x00000000)
T8F0C 001:476.940 - 0.013ms returns 0x00
T8F0C 001:476.949 JLINK_WriteReg(R11, 0x00000000)
T8F0C 001:476.958 - 0.012ms returns 0x00
T8F0C 001:476.968 JLINK_WriteReg(R12, 0x00000000)
T8F0C 001:476.977 - 0.013ms returns 0x00
T8F0C 001:476.986 JLINK_WriteReg(R13 (SP), 0x20001000)
T8F0C 001:476.995 - 0.013ms returns 0x00
T8F0C 001:477.005 JLINK_WriteReg(R14, 0x20000001)
T8F0C 001:477.014 - 0.012ms returns 0x00
T8F0C 001:477.023 JLINK_WriteReg(R15 (PC), 0x200001C4)
T8F0C 001:477.032 - 0.013ms returns 0x00
T8F0C 001:477.042 JLINK_WriteReg(XPSR, 0x01000000)
T8F0C 001:477.051 - 0.014ms returns 0x00
T8F0C 001:477.061 JLINK_WriteReg(MSP, 0x20001000)
T8F0C 001:477.070 - 0.013ms returns 0x00
T8F0C 001:477.080 JLINK_WriteReg(PSP, 0x20001000)
T8F0C 001:477.089 - 0.013ms returns 0x00
T8F0C 001:477.099 JLINK_WriteReg(CFBP, 0x00000000)
T8F0C 001:477.108 - 0.013ms returns 0x00
T8F0C 001:477.119   JLINK_SetBPEx(Addr = 0x20000000, Type = 0xFFFFFFF2)
T8F0C 001:477.133 - 0.021ms returns 0x00000003
T8F0C 001:477.145 JLINK_Go()
T8F0C 001:477.165   CPU_ReadMem(4 bytes @ 0xE0001000)
T8F0C 001:527.679 - 50.571ms
T8F0C 001:527.734 JLINK_IsHalted()
T8F0C 001:531.621 - 3.906ms returns FALSE
T8F0C 001:563.031 JLINK_IsHalted()
T8F0C 001:566.783 - 3.776ms returns FALSE
T8F0C 001:568.045 JLINK_IsHalted()
T8F0C 001:571.836 - 3.830ms returns FALSE
T8F0C 001:573.007 JLINK_IsHalted()
T8F0C 001:576.805 - 3.848ms returns FALSE
T8F0C 001:577.981 JLINK_IsHalted()
T8F0C 001:581.860 - 3.895ms returns FALSE
T8F0C 001:582.950 JLINK_IsHalted()
T8F0C 001:586.789 - 3.863ms returns FALSE
T8F0C 001:587.942 JLINK_IsHalted()
T8F0C 001:591.658 - 3.734ms returns FALSE
T8F0C 001:592.959 JLINK_IsHalted()
T8F0C 001:596.683 - 3.756ms returns FALSE
T8F0C 001:597.871 JLINK_IsHalted()
T8F0C 001:601.748 - 3.909ms returns FALSE
T8F0C 001:603.846 JLINK_IsHalted()
T8F0C 001:607.688 - 3.860ms returns FALSE
T8F0C 001:610.862 JLINK_IsHalted()
T8F0C 001:614.643 - 3.800ms returns FALSE
T8F0C 001:615.809 JLINK_IsHalted()
T8F0C 001:669.423   CPU_ReadMem(2 bytes @ 0x20000000)
T8F0C 001:672.772 - 56.985ms returns TRUE
T8F0C 001:672.806 JLINK_ReadReg(R15 (PC))
T8F0C 001:672.817 - 0.014ms returns 0x20000000
T8F0C 001:672.824 JLINK_ClrBPEx(BPHandle = 0x00000003)
T8F0C 001:672.831 - 0.008ms returns 0x00
T8F0C 001:672.838 JLINK_ReadReg(R0)
T8F0C 001:672.843 - 0.007ms returns 0x00000000
T8F0C 001:673.343 JLINK_WriteReg(R0, 0x00000001)
T8F0C 001:673.363 - 0.024ms returns 0x00
T8F0C 001:673.373 JLINK_WriteReg(R1, 0x00004000)
T8F0C 001:673.379 - 0.008ms returns 0x00
T8F0C 001:673.385 JLINK_WriteReg(R2, 0x000000FF)
T8F0C 001:673.390 - 0.007ms returns 0x00
T8F0C 001:673.396 JLINK_WriteReg(R3, 0x00000000)
T8F0C 001:673.401 - 0.007ms returns 0x00
T8F0C 001:673.407 JLINK_WriteReg(R4, 0x00000000)
T8F0C 001:673.412 - 0.007ms returns 0x00
T8F0C 001:673.418 JLINK_WriteReg(R5, 0x00000000)
T8F0C 001:673.423 - 0.007ms returns 0x00
T8F0C 001:673.429 JLINK_WriteReg(R6, 0x00000000)
T8F0C 001:673.515 - 0.089ms returns 0x00
T8F0C 001:673.521 JLINK_WriteReg(R7, 0x00000000)
T8F0C 001:673.526 - 0.007ms returns 0x00
T8F0C 001:673.532 JLINK_WriteReg(R8, 0x00000000)
T8F0C 001:673.537 - 0.008ms returns 0x00
T8F0C 001:673.543 JLINK_WriteReg(R9, 0x20000348)
T8F0C 001:673.548 - 0.007ms returns 0x00
T8F0C 001:673.554 JLINK_WriteReg(R10, 0x00000000)
T8F0C 001:673.559 - 0.007ms returns 0x00
T8F0C 001:673.565 JLINK_WriteReg(R11, 0x00000000)
T8F0C 001:673.571 - 0.007ms returns 0x00
T8F0C 001:673.576 JLINK_WriteReg(R12, 0x00000000)
T8F0C 001:673.582 - 0.008ms returns 0x00
T8F0C 001:673.588 JLINK_WriteReg(R13 (SP), 0x20001000)
T8F0C 001:673.593 - 0.008ms returns 0x00
T8F0C 001:673.599 JLINK_WriteReg(R14, 0x20000001)
T8F0C 001:673.604 - 0.007ms returns 0x00
T8F0C 001:673.610 JLINK_WriteReg(R15 (PC), 0x20000144)
T8F0C 001:673.616 - 0.007ms returns 0x00
T8F0C 001:673.622 JLINK_WriteReg(XPSR, 0x01000000)
T8F0C 001:673.627 - 0.007ms returns 0x00
T8F0C 001:673.633 JLINK_WriteReg(MSP, 0x20001000)
T8F0C 001:673.638 - 0.007ms returns 0x00
T8F0C 001:673.644 JLINK_WriteReg(PSP, 0x20001000)
T8F0C 001:673.650 - 0.008ms returns 0x00
T8F0C 001:673.656 JLINK_WriteReg(CFBP, 0x00000000)
T8F0C 001:673.661 - 0.008ms returns 0x00
T8F0C 001:673.668   JLINK_SetBPEx(Addr = 0x20000000, Type = 0xFFFFFFF2)
T8F0C 001:673.678 - 0.012ms returns 0x00000004
T8F0C 001:673.684 JLINK_Go()
T8F0C 001:673.701   CPU_ReadMem(4 bytes @ 0xE0001000)
T8F0C 001:724.326 - 50.665ms
T8F0C 001:724.359 JLINK_IsHalted()
T8F0C 001:777.847   CPU_ReadMem(2 bytes @ 0x20000000)
T8F0C 001:781.269 - 56.925ms returns TRUE
T8F0C 001:781.294 JLINK_ReadReg(R15 (PC))
T8F0C 001:781.304 - 0.013ms returns 0x20000000
T8F0C 001:781.311 JLINK_ClrBPEx(BPHandle = 0x00000004)
T8F0C 001:781.317 - 0.008ms returns 0x00
T8F0C 001:781.323 JLINK_ReadReg(R0)
T8F0C 001:781.328 - 0.007ms returns 0x00000000
T8F0C 001:842.203 JLINK_WriteMem(0x20000000, 0x034C Bytes, ...)
T8F0C 001:842.220   Data:  00 BE 0A E0 0D 78 2D 06 68 40 08 24 40 00 00 D3 ...
T8F0C 001:842.244   CPU_WriteMem(844 bytes @ 0x20000000)
T8F0C 001:944.392 - 102.211ms returns 0x34C
T8F0C 001:944.485 JLINK_WriteReg(R0, 0x08000000)
T8F0C 001:944.494 - 0.012ms returns 0x00
T8F0C 001:944.500 JLINK_WriteReg(R1, 0x00B71B00)
T8F0C 001:944.505 - 0.007ms returns 0x00
T8F0C 001:944.509 JLINK_WriteReg(R2, 0x00000002)
T8F0C 001:944.515 - 0.008ms returns 0x00
T8F0C 001:944.521 JLINK_WriteReg(R3, 0x00000000)
T8F0C 001:944.525 - 0.006ms returns 0x00
T8F0C 001:944.529 JLINK_WriteReg(R4, 0x00000000)
T8F0C 001:944.533 - 0.006ms returns 0x00
T8F0C 001:944.538 JLINK_WriteReg(R5, 0x00000000)
T8F0C 001:944.542 - 0.006ms returns 0x00
T8F0C 001:944.546 JLINK_WriteReg(R6, 0x00000000)
T8F0C 001:944.551 - 0.006ms returns 0x00
T8F0C 001:944.555 JLINK_WriteReg(R7, 0x00000000)
T8F0C 001:944.559 - 0.006ms returns 0x00
T8F0C 001:944.564 JLINK_WriteReg(R8, 0x00000000)
T8F0C 001:944.568 - 0.006ms returns 0x00
T8F0C 001:944.575 JLINK_WriteReg(R9, 0x20000348)
T8F0C 001:944.579 - 0.006ms returns 0x00
T8F0C 001:944.583 JLINK_WriteReg(R10, 0x00000000)
T8F0C 001:944.588 - 0.006ms returns 0x00
T8F0C 001:944.592 JLINK_WriteReg(R11, 0x00000000)
T8F0C 001:944.597 - 0.006ms returns 0x00
T8F0C 001:944.602 JLINK_WriteReg(R12, 0x00000000)
T8F0C 001:944.606 - 0.006ms returns 0x00
T8F0C 001:944.610 JLINK_WriteReg(R13 (SP), 0x20001000)
T8F0C 001:944.615 - 0.007ms returns 0x00
T8F0C 001:944.620 JLINK_WriteReg(R14, 0x20000001)
T8F0C 001:944.625 - 0.006ms returns 0x00
T8F0C 001:944.629 JLINK_WriteReg(R15 (PC), 0x200000B0)
T8F0C 001:944.634 - 0.007ms returns 0x00
T8F0C 001:944.639 JLINK_WriteReg(XPSR, 0x01000000)
T8F0C 001:944.644 - 0.006ms returns 0x00
T8F0C 001:944.649 JLINK_WriteReg(MSP, 0x20001000)
T8F0C 001:944.656 - 0.009ms returns 0x00
T8F0C 001:944.661 JLINK_WriteReg(PSP, 0x20001000)
T8F0C 001:944.665 - 0.006ms returns 0x00
T8F0C 001:944.670 JLINK_WriteReg(CFBP, 0x00000000)
T8F0C 001:944.674 - 0.006ms returns 0x00
T8F0C 001:944.679   JLINK_SetBPEx(Addr = 0x20000000, Type = 0xFFFFFFF2)
T8F0C 001:944.733   CPU_ReadMem(4 bytes @ 0x20000000)
T8F0C 001:948.025   CPU_WriteMem(4 bytes @ 0x20000000)
T8F0C 001:951.226   CPU_ReadMem(4 bytes @ 0x20000000)
T8F0C 001:954.534   CPU_WriteMem(4 bytes @ 0x20000000)
T8F0C 001:957.743   CPU_ReadMem(2 bytes @ 0x20000000)
T8F0C 001:961.127 - 16.459ms returns 0x00000005
T8F0C 001:961.145 JLINK_Go()
T8F0C 001:961.154   CPU_WriteMem(2 bytes @ 0x20000000)
T8F0C 001:964.479   CPU_ReadMem(4 bytes @ 0xE0001000)
T8F0C 002:015.011 - 53.885ms
T8F0C 002:015.040 JLINK_IsHalted()
T8F0C 002:068.397   CPU_ReadMem(2 bytes @ 0x20000000)
T8F0C 002:071.691 - 56.675ms returns TRUE
T8F0C 002:071.731 JLINK_ReadReg(R15 (PC))
T8F0C 002:071.743 - 0.015ms returns 0x20000000
T8F0C 002:071.752 JLINK_ClrBPEx(BPHandle = 0x00000005)
T8F0C 002:071.759 - 0.010ms returns 0x00
T8F0C 002:071.767 JLINK_ReadReg(R0)
T8F0C 002:071.773 - 0.009ms returns 0x00000000
T8F0C 002:072.115 JLINK_WriteMem(0x2000034C, 0x00B4 Bytes, ...)
T8F0C 002:072.127   Data:  38 22 00 20 C5 01 00 08 31 03 00 08 D9 02 00 08 ...
T8F0C 002:072.147   CPU_WriteMem(180 bytes @ 0x2000034C)
T8F0C 002:097.136 - 25.094ms returns 0xB4
T8F0C 002:097.238 JLINK_WriteMem(0x20000400, 0x034C Bytes, ...)
T8F0C 002:097.257   Data:  DF 01 00 08 DF 01 00 08 DF 01 00 08 DF 01 00 08 ...
T8F0C 002:097.308   CPU_WriteMem(844 bytes @ 0x20000400)
T8F0C 002:199.709 - 102.492ms returns 0x34C
T8F0C 002:199.745 JLINK_WriteReg(R0, 0x08000000)
T8F0C 002:199.758 - 0.015ms returns 0x00
T8F0C 002:199.763 JLINK_WriteReg(R1, 0x00000400)
T8F0C 002:199.768 - 0.007ms returns 0x00
T8F0C 002:199.774 JLINK_WriteReg(R2, 0x2000034C)
T8F0C 002:199.779 - 0.007ms returns 0x00
T8F0C 002:199.784 JLINK_WriteReg(R3, 0x00000000)
T8F0C 002:199.789 - 0.006ms returns 0x00
T8F0C 002:199.794 JLINK_WriteReg(R4, 0x00000000)
T8F0C 002:199.799 - 0.007ms returns 0x00
T8F0C 002:199.805 JLINK_WriteReg(R5, 0x00000000)
T8F0C 002:199.810 - 0.006ms returns 0x00
T8F0C 002:199.816 JLINK_WriteReg(R6, 0x00000000)
T8F0C 002:199.820 - 0.006ms returns 0x00
T8F0C 002:199.826 JLINK_WriteReg(R7, 0x00000000)
T8F0C 002:199.831 - 0.007ms returns 0x00
T8F0C 002:199.836 JLINK_WriteReg(R8, 0x00000000)
T8F0C 002:199.841 - 0.006ms returns 0x00
T8F0C 002:199.847 JLINK_WriteReg(R9, 0x20000348)
T8F0C 002:199.851 - 0.006ms returns 0x00
T8F0C 002:199.857 JLINK_WriteReg(R10, 0x00000000)
T8F0C 002:199.861 - 0.006ms returns 0x00
T8F0C 002:199.867 JLINK_WriteReg(R11, 0x00000000)
T8F0C 002:199.872 - 0.006ms returns 0x00
T8F0C 002:199.877 JLINK_WriteReg(R12, 0x00000000)
T8F0C 002:199.882 - 0.006ms returns 0x00
T8F0C 002:199.888 JLINK_WriteReg(R13 (SP), 0x20001000)
T8F0C 002:199.893 - 0.007ms returns 0x00
T8F0C 002:199.899 JLINK_WriteReg(R14, 0x20000001)
T8F0C 002:199.903 - 0.006ms returns 0x00
T8F0C 002:199.909 JLINK_WriteReg(R15 (PC), 0x20000274)
T8F0C 002:199.914 - 0.007ms returns 0x00
T8F0C 002:199.919 JLINK_WriteReg(XPSR, 0x01000000)
T8F0C 002:199.924 - 0.006ms returns 0x00
T8F0C 002:199.929 JLINK_WriteReg(MSP, 0x20001000)
T8F0C 002:199.934 - 0.006ms returns 0x00
T8F0C 002:199.940 JLINK_WriteReg(PSP, 0x20001000)
T8F0C 002:199.944 - 0.006ms returns 0x00
T8F0C 002:199.950 JLINK_WriteReg(CFBP, 0x00000000)
T8F0C 002:199.954 - 0.006ms returns 0x00
T8F0C 002:199.961   JLINK_SetBPEx(Addr = 0x20000000, Type = 0xFFFFFFF2)
T8F0C 002:199.969 - 0.010ms returns 0x00000006
T8F0C 002:199.975 JLINK_Go()
T8F0C 002:199.989   CPU_ReadMem(4 bytes @ 0xE0001000)
T8F0C 002:250.535 - 50.584ms
T8F0C 002:250.570 JLINK_IsHalted()
T8F0C 002:254.327 - 3.794ms returns FALSE
T8F0C 002:264.834 JLINK_IsHalted()
T8F0C 002:268.582 - 3.761ms returns FALSE
T8F0C 002:269.805 JLINK_IsHalted()
T8F0C 002:323.323   CPU_ReadMem(2 bytes @ 0x20000000)
T8F0C 002:326.681 - 56.888ms returns TRUE
T8F0C 002:326.703 JLINK_ReadReg(R15 (PC))
T8F0C 002:326.712 - 0.012ms returns 0x20000000
T8F0C 002:326.719 JLINK_ClrBPEx(BPHandle = 0x00000006)
T8F0C 002:326.725 - 0.008ms returns 0x00
T8F0C 002:326.732 JLINK_ReadReg(R0)
T8F0C 002:326.738 - 0.007ms returns 0x00000000
T8F0C 002:327.284 JLINK_WriteMem(0x2000034C, 0x00B4 Bytes, ...)
T8F0C 002:327.301   Data:  0B 49 08 31 08 60 00 BF 09 48 08 30 00 68 00 20 ...
T8F0C 002:327.316   CPU_WriteMem(180 bytes @ 0x2000034C)
T8F0C 002:352.325 - 25.065ms returns 0xB4
T8F0C 002:352.358 JLINK_WriteMem(0x20000400, 0x034C Bytes, ...)
T8F0C 002:352.363   Data:  0F 29 02 D1 55 A0 00 F0 ED F8 50 48 00 88 40 1C ...
T8F0C 002:352.383   CPU_WriteMem(844 bytes @ 0x20000400)
T8F0C 002:454.622 - 102.283ms returns 0x34C
T8F0C 002:454.655 JLINK_WriteReg(R0, 0x08000400)
T8F0C 002:454.666 - 0.014ms returns 0x00
T8F0C 002:454.671 JLINK_WriteReg(R1, 0x00000400)
T8F0C 002:454.676 - 0.006ms returns 0x00
T8F0C 002:454.681 JLINK_WriteReg(R2, 0x2000034C)
T8F0C 002:454.686 - 0.006ms returns 0x00
T8F0C 002:454.690 JLINK_WriteReg(R3, 0x00000000)
T8F0C 002:454.695 - 0.006ms returns 0x00
T8F0C 002:454.700 JLINK_WriteReg(R4, 0x00000000)
T8F0C 002:454.704 - 0.006ms returns 0x00
T8F0C 002:454.710 JLINK_WriteReg(R5, 0x00000000)
T8F0C 002:454.714 - 0.006ms returns 0x00
T8F0C 002:454.720 JLINK_WriteReg(R6, 0x00000000)
T8F0C 002:454.724 - 0.006ms returns 0x00
T8F0C 002:454.730 JLINK_WriteReg(R7, 0x00000000)
T8F0C 002:454.734 - 0.006ms returns 0x00
T8F0C 002:454.740 JLINK_WriteReg(R8, 0x00000000)
T8F0C 002:454.744 - 0.006ms returns 0x00
T8F0C 002:454.750 JLINK_WriteReg(R9, 0x20000348)
T8F0C 002:454.754 - 0.006ms returns 0x00
T8F0C 002:454.760 JLINK_WriteReg(R10, 0x00000000)
T8F0C 002:454.764 - 0.006ms returns 0x00
T8F0C 002:454.770 JLINK_WriteReg(R11, 0x00000000)
T8F0C 002:454.774 - 0.006ms returns 0x00
T8F0C 002:454.780 JLINK_WriteReg(R12, 0x00000000)
T8F0C 002:454.784 - 0.006ms returns 0x00
T8F0C 002:454.790 JLINK_WriteReg(R13 (SP), 0x20001000)
T8F0C 002:454.795 - 0.007ms returns 0x00
T8F0C 002:454.801 JLINK_WriteReg(R14, 0x20000001)
T8F0C 002:454.805 - 0.006ms returns 0x00
T8F0C 002:454.811 JLINK_WriteReg(R15 (PC), 0x20000274)
T8F0C 002:454.815 - 0.006ms returns 0x00
T8F0C 002:454.821 JLINK_WriteReg(XPSR, 0x01000000)
T8F0C 002:454.826 - 0.006ms returns 0x00
T8F0C 002:454.831 JLINK_WriteReg(MSP, 0x20001000)
T8F0C 002:454.835 - 0.006ms returns 0x00
T8F0C 002:454.841 JLINK_WriteReg(PSP, 0x20001000)
T8F0C 002:454.845 - 0.006ms returns 0x00
T8F0C 002:454.851 JLINK_WriteReg(CFBP, 0x00000000)
T8F0C 002:454.855 - 0.006ms returns 0x00
T8F0C 002:454.862   JLINK_SetBPEx(Addr = 0x20000000, Type = 0xFFFFFFF2)
T8F0C 002:454.870 - 0.010ms returns 0x00000007
T8F0C 002:454.876 JLINK_Go()
T8F0C 002:454.888   CPU_ReadMem(4 bytes @ 0xE0001000)
T8F0C 002:505.410 - 50.567ms
T8F0C 002:505.455 JLINK_IsHalted()
T8F0C 002:509.164 - 3.724ms returns FALSE
T8F0C 002:515.955 JLINK_IsHalted()
T8F0C 002:519.689 - 3.743ms returns FALSE
T8F0C 002:520.935 JLINK_IsHalted()
T8F0C 002:524.661 - 3.735ms returns FALSE
T8F0C 002:525.916 JLINK_IsHalted()
T8F0C 002:579.314   CPU_ReadMem(2 bytes @ 0x20000000)
T8F0C 002:582.626 - 56.719ms returns TRUE
T8F0C 002:582.646 JLINK_ReadReg(R15 (PC))
T8F0C 002:582.656 - 0.012ms returns 0x20000000
T8F0C 002:582.663 JLINK_ClrBPEx(BPHandle = 0x00000007)
T8F0C 002:582.669 - 0.008ms returns 0x00
T8F0C 002:582.676 JLINK_ReadReg(R0)
T8F0C 002:582.681 - 0.007ms returns 0x00000000
T8F0C 002:583.123 JLINK_WriteMem(0x2000034C, 0x00B4 Bytes, ...)
T8F0C 002:583.134   Data:  94 E0 75 28 6E D0 78 28 6D D0 DD E9 0F 12 90 47 ...
T8F0C 002:583.149   CPU_WriteMem(180 bytes @ 0x2000034C)
T8F0C 002:607.989 - 24.898ms returns 0xB4
T8F0C 002:608.036 JLINK_WriteMem(0x20000400, 0x034C Bytes, ...)
T8F0C 002:608.048   Data:  F7 D2 21 46 48 46 F2 E0 0A 21 C4 F3 02 52 4F F0 ...
T8F0C 002:608.080   CPU_WriteMem(844 bytes @ 0x20000400)
T8F0C 002:710.281 - 102.263ms returns 0x34C
T8F0C 002:710.316 JLINK_WriteReg(R0, 0x08000800)
T8F0C 002:710.329 - 0.016ms returns 0x00
T8F0C 002:710.336 JLINK_WriteReg(R1, 0x00000400)
T8F0C 002:710.343 - 0.009ms returns 0x00
T8F0C 002:710.350 JLINK_WriteReg(R2, 0x2000034C)
T8F0C 002:710.356 - 0.009ms returns 0x00
T8F0C 002:710.364 JLINK_WriteReg(R3, 0x00000000)
T8F0C 002:710.370 - 0.009ms returns 0x00
T8F0C 002:710.377 JLINK_WriteReg(R4, 0x00000000)
T8F0C 002:710.388 - 0.013ms returns 0x00
T8F0C 002:710.395 JLINK_WriteReg(R5, 0x00000000)
T8F0C 002:710.401 - 0.009ms returns 0x00
T8F0C 002:710.409 JLINK_WriteReg(R6, 0x00000000)
T8F0C 002:710.415 - 0.009ms returns 0x00
T8F0C 002:710.423 JLINK_WriteReg(R7, 0x00000000)
T8F0C 002:710.429 - 0.009ms returns 0x00
T8F0C 002:710.437 JLINK_WriteReg(R8, 0x00000000)
T8F0C 002:710.443 - 0.009ms returns 0x00
T8F0C 002:710.451 JLINK_WriteReg(R9, 0x20000348)
T8F0C 002:710.457 - 0.009ms returns 0x00
T8F0C 002:710.465 JLINK_WriteReg(R10, 0x00000000)
T8F0C 002:710.471 - 0.009ms returns 0x00
T8F0C 002:710.479 JLINK_WriteReg(R11, 0x00000000)
T8F0C 002:710.485 - 0.009ms returns 0x00
T8F0C 002:710.493 JLINK_WriteReg(R12, 0x00000000)
T8F0C 002:710.499 - 0.009ms returns 0x00
T8F0C 002:710.507 JLINK_WriteReg(R13 (SP), 0x20001000)
T8F0C 002:710.514 - 0.010ms returns 0x00
T8F0C 002:710.522 JLINK_WriteReg(R14, 0x20000001)
T8F0C 002:710.528 - 0.009ms returns 0x00
T8F0C 002:710.536 JLINK_WriteReg(R15 (PC), 0x20000274)
T8F0C 002:710.542 - 0.009ms returns 0x00
T8F0C 002:710.550 JLINK_WriteReg(XPSR, 0x01000000)
T8F0C 002:710.556 - 0.009ms returns 0x00
T8F0C 002:710.564 JLINK_WriteReg(MSP, 0x20001000)
T8F0C 002:710.571 - 0.009ms returns 0x00
T8F0C 002:710.578 JLINK_WriteReg(PSP, 0x20001000)
T8F0C 002:710.585 - 0.009ms returns 0x00
T8F0C 002:710.684 JLINK_WriteReg(CFBP, 0x00000000)
T8F0C 002:710.707 - 0.026ms returns 0x00
T8F0C 002:710.716   JLINK_SetBPEx(Addr = 0x20000000, Type = 0xFFFFFFF2)
T8F0C 002:710.727 - 0.014ms returns 0x00000008
T8F0C 002:710.734 JLINK_Go()
T8F0C 002:710.751   CPU_ReadMem(4 bytes @ 0xE0001000)
T8F0C 002:761.307 - 50.597ms
T8F0C 002:761.345 JLINK_IsHalted()
T8F0C 002:765.138 - 3.846ms returns FALSE
T8F0C 002:775.589 JLINK_IsHalted()
T8F0C 002:779.403 - 3.840ms returns FALSE
T8F0C 002:780.541 JLINK_IsHalted()
T8F0C 002:834.001   CPU_ReadMem(2 bytes @ 0x20000000)
T8F0C 002:837.314 - 56.807ms returns TRUE
T8F0C 002:837.374 JLINK_ReadReg(R15 (PC))
T8F0C 002:837.400 - 0.034ms returns 0x20000000
T8F0C 002:837.418 JLINK_ClrBPEx(BPHandle = 0x00000008)
T8F0C 002:837.433 - 0.064ms returns 0x00
T8F0C 002:837.504 JLINK_ReadReg(R0)
T8F0C 002:837.525 - 0.028ms returns 0x00000000
T8F0C 002:838.735 JLINK_WriteMem(0x2000034C, 0x00B4 Bytes, ...)
T8F0C 002:838.756   Data:  81 FD 03 48 00 F0 62 FD 10 BD 00 00 00 00 02 40 ...
T8F0C 002:838.777   CPU_WriteMem(180 bytes @ 0x2000034C)
T8F0C 002:863.690 - 25.004ms returns 0xB4
T8F0C 002:863.770 JLINK_WriteMem(0x20000400, 0x034C Bytes, ...)
T8F0C 002:863.791   Data:  06 FA 07 F7 3A 43 47 1C B8 B2 10 28 E3 D3 21 60 ...
T8F0C 002:863.842   CPU_WriteMem(844 bytes @ 0x20000400)
T8F0C 002:966.114 - 102.367ms returns 0x34C
T8F0C 002:966.239 JLINK_WriteReg(R0, 0x08000C00)
T8F0C 002:966.255 - 0.020ms returns 0x00
T8F0C 002:966.264 JLINK_WriteReg(R1, 0x00000400)
T8F0C 002:966.272 - 0.011ms returns 0x00
T8F0C 002:966.280 JLINK_WriteReg(R2, 0x2000034C)
T8F0C 002:966.287 - 0.010ms returns 0x00
T8F0C 002:966.295 JLINK_WriteReg(R3, 0x00000000)
T8F0C 002:966.302 - 0.010ms returns 0x00
T8F0C 002:966.310 JLINK_WriteReg(R4, 0x00000000)
T8F0C 002:966.317 - 0.010ms returns 0x00
T8F0C 002:966.324 JLINK_WriteReg(R5, 0x00000000)
T8F0C 002:966.331 - 0.010ms returns 0x00
T8F0C 002:966.338 JLINK_WriteReg(R6, 0x00000000)
T8F0C 002:966.345 - 0.010ms returns 0x00
T8F0C 002:966.353 JLINK_WriteReg(R7, 0x00000000)
T8F0C 002:966.359 - 0.010ms returns 0x00
T8F0C 002:966.367 JLINK_WriteReg(R8, 0x00000000)
T8F0C 002:966.374 - 0.010ms returns 0x00
T8F0C 002:966.381 JLINK_WriteReg(R9, 0x20000348)
T8F0C 002:966.388 - 0.010ms returns 0x00
T8F0C 002:966.396 JLINK_WriteReg(R10, 0x00000000)
T8F0C 002:966.403 - 0.010ms returns 0x00
T8F0C 002:966.411 JLINK_WriteReg(R11, 0x00000000)
T8F0C 002:966.417 - 0.010ms returns 0x00
T8F0C 002:966.425 JLINK_WriteReg(R12, 0x00000000)
T8F0C 002:966.431 - 0.010ms returns 0x00
T8F0C 002:966.439 JLINK_WriteReg(R13 (SP), 0x20001000)
T8F0C 002:966.447 - 0.011ms returns 0x00
T8F0C 002:966.454 JLINK_WriteReg(R14, 0x20000001)
T8F0C 002:966.468 - 0.017ms returns 0x00
T8F0C 002:966.476 JLINK_WriteReg(R15 (PC), 0x20000274)
T8F0C 002:966.483 - 0.010ms returns 0x00
T8F0C 002:966.491 JLINK_WriteReg(XPSR, 0x01000000)
T8F0C 002:966.499 - 0.010ms returns 0x00
T8F0C 002:966.506 JLINK_WriteReg(MSP, 0x20001000)
T8F0C 002:966.513 - 0.010ms returns 0x00
T8F0C 002:966.521 JLINK_WriteReg(PSP, 0x20001000)
T8F0C 002:966.528 - 0.010ms returns 0x00
T8F0C 002:966.535 JLINK_WriteReg(CFBP, 0x00000000)
T8F0C 002:966.543 - 0.010ms returns 0x00
T8F0C 002:966.552   JLINK_SetBPEx(Addr = 0x20000000, Type = 0xFFFFFFF2)
T8F0C 002:966.564 - 0.016ms returns 0x00000009
T8F0C 002:966.572 JLINK_Go()
T8F0C 002:966.595   CPU_ReadMem(4 bytes @ 0xE0001000)
T8F0C 003:017.130 - 50.598ms
T8F0C 003:017.192 JLINK_IsHalted()
T8F0C 003:021.123 - 3.970ms returns FALSE
T8F0C 003:030.113 JLINK_IsHalted()
T8F0C 003:033.882 - 3.796ms returns FALSE
T8F0C 003:035.090 JLINK_IsHalted()
T8F0C 003:088.528   CPU_ReadMem(2 bytes @ 0x20000000)
T8F0C 003:091.857 - 56.799ms returns TRUE
T8F0C 003:091.914 JLINK_ReadReg(R15 (PC))
T8F0C 003:091.939 - 0.034ms returns 0x20000000
T8F0C 003:091.960 JLINK_ClrBPEx(BPHandle = 0x00000009)
T8F0C 003:091.978 - 0.026ms returns 0x00
T8F0C 003:091.998 JLINK_ReadReg(R0)
T8F0C 003:092.015 - 0.025ms returns 0x00000000
T8F0C 003:092.957 JLINK_WriteMem(0x2000034C, 0x00B4 Bytes, ...)
T8F0C 003:092.978   Data:  80 50 00 F0 2F F8 0D F5 00 5D BD E8 F0 87 00 00 ...
T8F0C 003:093.003   CPU_WriteMem(180 bytes @ 0x2000034C)
T8F0C 003:117.894 - 24.977ms returns 0xB4
T8F0C 003:117.957 JLINK_WriteMem(0x20000400, 0x034C Bytes, ...)
T8F0C 003:117.975   Data:  EE D1 B8 F1 00 0F 34 D0 42 46 31 46 38 46 00 F0 ...
T8F0C 003:118.026   CPU_WriteMem(844 bytes @ 0x20000400)
T8F0C 003:220.252 - 102.336ms returns 0x34C
T8F0C 003:220.497 JLINK_WriteReg(R0, 0x08001000)
T8F0C 003:220.536 - 0.047ms returns 0x00
T8F0C 003:220.549 JLINK_WriteReg(R1, 0x00000400)
T8F0C 003:220.560 - 0.015ms returns 0x00
T8F0C 003:220.570 JLINK_WriteReg(R2, 0x2000034C)
T8F0C 003:220.580 - 0.014ms returns 0x00
T8F0C 003:220.590 JLINK_WriteReg(R3, 0x00000000)
T8F0C 003:220.600 - 0.014ms returns 0x00
T8F0C 003:220.611 JLINK_WriteReg(R4, 0x00000000)
T8F0C 003:220.620 - 0.013ms returns 0x00
T8F0C 003:220.630 JLINK_WriteReg(R5, 0x00000000)
T8F0C 003:220.639 - 0.013ms returns 0x00
T8F0C 003:220.650 JLINK_WriteReg(R6, 0x00000000)
T8F0C 003:220.659 - 0.014ms returns 0x00
T8F0C 003:220.670 JLINK_WriteReg(R7, 0x00000000)
T8F0C 003:220.680 - 0.015ms returns 0x00
T8F0C 003:220.691 JLINK_WriteReg(R8, 0x00000000)
T8F0C 003:220.701 - 0.015ms returns 0x00
T8F0C 003:220.712 JLINK_WriteReg(R9, 0x20000348)
T8F0C 003:220.722 - 0.015ms returns 0x00
T8F0C 003:220.734 JLINK_WriteReg(R10, 0x00000000)
T8F0C 003:220.745 - 0.016ms returns 0x00
T8F0C 003:220.757 JLINK_WriteReg(R11, 0x00000000)
T8F0C 003:220.768 - 0.015ms returns 0x00
T8F0C 003:220.779 JLINK_WriteReg(R12, 0x00000000)
T8F0C 003:220.789 - 0.015ms returns 0x00
T8F0C 003:220.800 JLINK_WriteReg(R13 (SP), 0x20001000)
T8F0C 003:220.813 - 0.017ms returns 0x00
T8F0C 003:220.824 JLINK_WriteReg(R14, 0x20000001)
T8F0C 003:220.836 - 0.016ms returns 0x00
T8F0C 003:220.846 JLINK_WriteReg(R15 (PC), 0x20000274)
T8F0C 003:220.857 - 0.015ms returns 0x00
T8F0C 003:220.869 JLINK_WriteReg(XPSR, 0x01000000)
T8F0C 003:220.880 - 0.015ms returns 0x00
T8F0C 003:220.891 JLINK_WriteReg(MSP, 0x20001000)
T8F0C 003:220.901 - 0.014ms returns 0x00
T8F0C 003:220.912 JLINK_WriteReg(PSP, 0x20001000)
T8F0C 003:220.923 - 0.016ms returns 0x00
T8F0C 003:220.935 JLINK_WriteReg(CFBP, 0x00000000)
T8F0C 003:220.947 - 0.016ms returns 0x00
T8F0C 003:220.960   JLINK_SetBPEx(Addr = 0x20000000, Type = 0xFFFFFFF2)
T8F0C 003:220.981 - 0.028ms returns 0x0000000A
T8F0C 003:220.997 JLINK_Go()
T8F0C 003:221.023   CPU_ReadMem(4 bytes @ 0xE0001000)
T8F0C 003:271.636 - 50.703ms
T8F0C 003:271.727 JLINK_IsHalted()
T8F0C 003:275.490 - 3.803ms returns FALSE
T8F0C 003:283.937 JLINK_IsHalted()
T8F0C 003:287.721 - 3.813ms returns FALSE
T8F0C 003:289.748 JLINK_IsHalted()
T8F0C 003:343.470   CPU_ReadMem(2 bytes @ 0x20000000)
T8F0C 003:346.842 - 57.126ms returns TRUE
T8F0C 003:346.898 JLINK_ReadReg(R15 (PC))
T8F0C 003:346.923 - 0.034ms returns 0x20000000
T8F0C 003:346.959 JLINK_ClrBPEx(BPHandle = 0x0000000A)
T8F0C 003:346.980 - 0.029ms returns 0x00
T8F0C 003:347.002 JLINK_ReadReg(R0)
T8F0C 003:347.019 - 0.025ms returns 0x00000000
T8F0C 003:348.194 JLINK_WriteMem(0x2000034C, 0x00B4 Bytes, ...)
T8F0C 003:348.219   Data:  26 4B 08 33 1A 60 1A 46 12 68 42 F4 00 42 1A 60 ...
T8F0C 003:348.243   CPU_WriteMem(180 bytes @ 0x2000034C)
T8F0C 003:373.237 - 25.072ms returns 0xB4
T8F0C 003:373.280 JLINK_WriteMem(0x20000400, 0x034C Bytes, ...)
T8F0C 003:373.289   Data:  00 68 4F F4 7A 71 B0 FB F1 F4 60 1E B0 F1 80 7F ...
T8F0C 003:373.315   CPU_WriteMem(844 bytes @ 0x20000400)
T8F0C 003:475.679 - 102.437ms returns 0x34C
T8F0C 003:475.741 JLINK_WriteReg(R0, 0x08001400)
T8F0C 003:475.763 - 0.029ms returns 0x00
T8F0C 003:475.779 JLINK_WriteReg(R1, 0x00000400)
T8F0C 003:475.792 - 0.018ms returns 0x00
T8F0C 003:475.806 JLINK_WriteReg(R2, 0x2000034C)
T8F0C 003:475.818 - 0.018ms returns 0x00
T8F0C 003:475.831 JLINK_WriteReg(R3, 0x00000000)
T8F0C 003:475.843 - 0.017ms returns 0x00
T8F0C 003:475.973 JLINK_WriteReg(R4, 0x00000000)
T8F0C 003:476.004 - 0.036ms returns 0x00
T8F0C 003:476.013 JLINK_WriteReg(R5, 0x00000000)
T8F0C 003:476.020 - 0.009ms returns 0x00
T8F0C 003:476.026 JLINK_WriteReg(R6, 0x00000000)
T8F0C 003:476.033 - 0.009ms returns 0x00
T8F0C 003:476.039 JLINK_WriteReg(R7, 0x00000000)
T8F0C 003:476.046 - 0.009ms returns 0x00
T8F0C 003:476.052 JLINK_WriteReg(R8, 0x00000000)
T8F0C 003:476.058 - 0.009ms returns 0x00
T8F0C 003:476.065 JLINK_WriteReg(R9, 0x20000348)
T8F0C 003:476.071 - 0.009ms returns 0x00
T8F0C 003:476.078 JLINK_WriteReg(R10, 0x00000000)
T8F0C 003:476.084 - 0.009ms returns 0x00
T8F0C 003:476.091 JLINK_WriteReg(R11, 0x00000000)
T8F0C 003:476.097 - 0.009ms returns 0x00
T8F0C 003:476.104 JLINK_WriteReg(R12, 0x00000000)
T8F0C 003:476.110 - 0.009ms returns 0x00
T8F0C 003:476.117 JLINK_WriteReg(R13 (SP), 0x20001000)
T8F0C 003:476.124 - 0.010ms returns 0x00
T8F0C 003:476.131 JLINK_WriteReg(R14, 0x20000001)
T8F0C 003:476.137 - 0.009ms returns 0x00
T8F0C 003:476.144 JLINK_WriteReg(R15 (PC), 0x20000274)
T8F0C 003:476.150 - 0.009ms returns 0x00
T8F0C 003:476.157 JLINK_WriteReg(XPSR, 0x01000000)
T8F0C 003:476.163 - 0.009ms returns 0x00
T8F0C 003:476.170 JLINK_WriteReg(MSP, 0x20001000)
T8F0C 003:476.176 - 0.008ms returns 0x00
T8F0C 003:476.182 JLINK_WriteReg(PSP, 0x20001000)
T8F0C 003:476.188 - 0.009ms returns 0x00
T8F0C 003:476.195 JLINK_WriteReg(CFBP, 0x00000000)
T8F0C 003:476.201 - 0.009ms returns 0x00
T8F0C 003:476.209   JLINK_SetBPEx(Addr = 0x20000000, Type = 0xFFFFFFF2)
T8F0C 003:476.221 - 0.015ms returns 0x0000000B
T8F0C 003:476.228 JLINK_Go()
T8F0C 003:476.248   CPU_ReadMem(4 bytes @ 0xE0001000)
T8F0C 003:526.942 - 50.742ms
T8F0C 003:526.986 JLINK_IsHalted()
T8F0C 003:530.767 - 3.839ms returns FALSE
T8F0C 003:540.398 JLINK_IsHalted()
T8F0C 003:544.395 - 4.029ms returns FALSE
T8F0C 003:546.376 JLINK_IsHalted()
T8F0C 003:600.154   CPU_ReadMem(2 bytes @ 0x20000000)
T8F0C 003:603.713 - 57.400ms returns TRUE
T8F0C 003:603.819 JLINK_ReadReg(R15 (PC))
T8F0C 003:603.866 - 0.064ms returns 0x20000000
T8F0C 003:603.906 JLINK_ClrBPEx(BPHandle = 0x0000000B)
T8F0C 003:603.939 - 0.048ms returns 0x00
T8F0C 003:603.978 JLINK_ReadReg(R0)
T8F0C 003:604.009 - 0.046ms returns 0x00000000
T8F0C 003:608.668 JLINK_WriteMem(0x2000034C, 0x00B4 Bytes, ...)
T8F0C 003:608.734   Data:  2A 2A 2A 2A 2A 2A 2A 2A 2A 2A 0A 0D 0A 0D 00 00 ...
T8F0C 003:608.793   CPU_WriteMem(180 bytes @ 0x2000034C)
T8F0C 003:633.791 - 25.192ms returns 0xB4
T8F0C 003:633.882 JLINK_WriteMem(0x20000400, 0x034C Bytes, ...)
T8F0C 003:633.894   Data:  FF FF FF FF FF FF FF FF FF FF FF FF FF FF FF FF ...
T8F0C 003:633.936   CPU_WriteMem(844 bytes @ 0x20000400)
T8F0C 003:736.472 - 102.611ms returns 0x34C
T8F0C 003:736.512 JLINK_WriteReg(R0, 0x08001800)
T8F0C 003:736.532 - 0.026ms returns 0x00
T8F0C 003:736.541 JLINK_WriteReg(R1, 0x00000064)
T8F0C 003:736.548 - 0.009ms returns 0x00
T8F0C 003:736.555 JLINK_WriteReg(R2, 0x2000034C)
T8F0C 003:736.562 - 0.009ms returns 0x00
T8F0C 003:736.569 JLINK_WriteReg(R3, 0x00000000)
T8F0C 003:736.575 - 0.009ms returns 0x00
T8F0C 003:736.791 JLINK_WriteReg(R4, 0x00000000)
T8F0C 003:736.834 - 0.050ms returns 0x00
T8F0C 003:736.850 JLINK_WriteReg(R5, 0x00000000)
T8F0C 003:736.863 - 0.019ms returns 0x00
T8F0C 003:736.877 JLINK_WriteReg(R6, 0x00000000)
T8F0C 003:736.890 - 0.018ms returns 0x00
T8F0C 003:736.903 JLINK_WriteReg(R7, 0x00000000)
T8F0C 003:736.915 - 0.018ms returns 0x00
T8F0C 003:736.929 JLINK_WriteReg(R8, 0x00000000)
T8F0C 003:736.941 - 0.018ms returns 0x00
T8F0C 003:736.955 JLINK_WriteReg(R9, 0x20000348)
T8F0C 003:736.967 - 0.018ms returns 0x00
T8F0C 003:736.981 JLINK_WriteReg(R10, 0x00000000)
T8F0C 003:736.993 - 0.018ms returns 0x00
T8F0C 003:737.007 JLINK_WriteReg(R11, 0x00000000)
T8F0C 003:737.019 - 0.018ms returns 0x00
T8F0C 003:737.032 JLINK_WriteReg(R12, 0x00000000)
T8F0C 003:737.045 - 0.018ms returns 0x00
T8F0C 003:737.058 JLINK_WriteReg(R13 (SP), 0x20001000)
T8F0C 003:737.072 - 0.020ms returns 0x00
T8F0C 003:737.085 JLINK_WriteReg(R14, 0x20000001)
T8F0C 003:737.098 - 0.018ms returns 0x00
T8F0C 003:737.111 JLINK_WriteReg(R15 (PC), 0x20000274)
T8F0C 003:737.124 - 0.019ms returns 0x00
T8F0C 003:737.138 JLINK_WriteReg(XPSR, 0x01000000)
T8F0C 003:737.150 - 0.018ms returns 0x00
T8F0C 003:737.164 JLINK_WriteReg(MSP, 0x20001000)
T8F0C 003:737.176 - 0.018ms returns 0x00
T8F0C 003:737.189 JLINK_WriteReg(PSP, 0x20001000)
T8F0C 003:737.202 - 0.018ms returns 0x00
T8F0C 003:737.215 JLINK_WriteReg(CFBP, 0x00000000)
T8F0C 003:737.228 - 0.018ms returns 0x00
T8F0C 003:737.242   JLINK_SetBPEx(Addr = 0x20000000, Type = 0xFFFFFFF2)
T8F0C 003:737.263 - 0.027ms returns 0x0000000C
T8F0C 003:737.277 JLINK_Go()
T8F0C 003:737.316   CPU_ReadMem(4 bytes @ 0xE0001000)
T8F0C 003:787.908 - 50.678ms
T8F0C 003:787.980 JLINK_IsHalted()
T8F0C 003:841.433   CPU_ReadMem(2 bytes @ 0x20000000)
T8F0C 003:844.903 - 56.955ms returns TRUE
T8F0C 003:844.960 JLINK_ReadReg(R15 (PC))
T8F0C 003:844.984 - 0.032ms returns 0x20000000
T8F0C 003:845.005 JLINK_ClrBPEx(BPHandle = 0x0000000C)
T8F0C 003:845.022 - 0.023ms returns 0x00
T8F0C 003:845.042 JLINK_ReadReg(R0)
T8F0C 003:845.057 - 0.022ms returns 0x00000000
T8F0C 003:845.266 JLINK_WriteReg(R0, 0x00000002)
T8F0C 003:845.287 - 0.028ms returns 0x00
T8F0C 003:845.304 JLINK_WriteReg(R1, 0x00000064)
T8F0C 003:845.318 - 0.020ms returns 0x00
T8F0C 003:845.333 JLINK_WriteReg(R2, 0x2000034C)
T8F0C 003:845.346 - 0.020ms returns 0x00
T8F0C 003:845.362 JLINK_WriteReg(R3, 0x00000000)
T8F0C 003:845.375 - 0.020ms returns 0x00
T8F0C 003:845.390 JLINK_WriteReg(R4, 0x00000000)
T8F0C 003:845.403 - 0.020ms returns 0x00
T8F0C 003:845.418 JLINK_WriteReg(R5, 0x00000000)
T8F0C 003:845.432 - 0.019ms returns 0x00
T8F0C 003:845.447 JLINK_WriteReg(R6, 0x00000000)
T8F0C 003:845.460 - 0.019ms returns 0x00
T8F0C 003:845.475 JLINK_WriteReg(R7, 0x00000000)
T8F0C 003:845.489 - 0.020ms returns 0x00
T8F0C 003:845.504 JLINK_WriteReg(R8, 0x00000000)
T8F0C 003:845.517 - 0.020ms returns 0x00
T8F0C 003:845.532 JLINK_WriteReg(R9, 0x20000348)
T8F0C 003:845.546 - 0.020ms returns 0x00
T8F0C 003:845.561 JLINK_WriteReg(R10, 0x00000000)
T8F0C 003:845.574 - 0.020ms returns 0x00
T8F0C 003:845.590 JLINK_WriteReg(R11, 0x00000000)
T8F0C 003:845.603 - 0.020ms returns 0x00
T8F0C 003:845.618 JLINK_WriteReg(R12, 0x00000000)
T8F0C 003:845.632 - 0.020ms returns 0x00
T8F0C 003:845.647 JLINK_WriteReg(R13 (SP), 0x20001000)
T8F0C 003:845.661 - 0.021ms returns 0x00
T8F0C 003:845.676 JLINK_WriteReg(R14, 0x20000001)
T8F0C 003:845.690 - 0.020ms returns 0x00
T8F0C 003:845.705 JLINK_WriteReg(R15 (PC), 0x20000144)
T8F0C 003:845.719 - 0.020ms returns 0x00
T8F0C 003:845.734 JLINK_WriteReg(XPSR, 0x01000000)
T8F0C 003:845.748 - 0.020ms returns 0x00
T8F0C 003:845.763 JLINK_WriteReg(MSP, 0x20001000)
T8F0C 003:845.785 - 0.034ms returns 0x00
T8F0C 003:845.805 JLINK_WriteReg(PSP, 0x20001000)
T8F0C 003:845.819 - 0.020ms returns 0x00
T8F0C 003:845.834 JLINK_WriteReg(CFBP, 0x00000000)
T8F0C 003:845.848 - 0.019ms returns 0x00
T8F0C 003:845.864   JLINK_SetBPEx(Addr = 0x20000000, Type = 0xFFFFFFF2)
T8F0C 003:845.886 - 0.029ms returns 0x0000000D
T8F0C 003:845.902 JLINK_Go()
T8F0C 003:845.929   CPU_ReadMem(4 bytes @ 0xE0001000)
T8F0C 003:896.484 - 50.641ms
T8F0C 003:896.562 JLINK_IsHalted()
T8F0C 003:949.881   CPU_ReadMem(2 bytes @ 0x20000000)
T8F0C 003:953.210 - 56.657ms returns TRUE
T8F0C 003:953.230 JLINK_ReadReg(R15 (PC))
T8F0C 003:953.241 - 0.012ms returns 0x20000000
T8F0C 003:953.247 JLINK_ClrBPEx(BPHandle = 0x0000000D)
T8F0C 003:953.252 - 0.008ms returns 0x00
T8F0C 003:953.258 JLINK_ReadReg(R0)
